
**** 09/29/25 11:16:56 ***** PSpice 16.6.0 (October 2012) ***** ID# 0 ********

 ** Profile: "SCHEMATIC1-Lab2_3"  [ D:\PSPICE\Lab3_2-PSpiceFiles\SCHEMATIC1\Lab2_3.sim ] 


 ****     CIRCUIT DESCRIPTION


******************************************************************************




** Creating circuit file "Lab2_3.cir" 
** WARNING: THIS AUTOMATICALLY GENERATED FILE MAY BE OVERWRITTEN BY SUBSEQUENT SIMULATIONS

*Libraries: 
* Profile Libraries :
* Local Libraries :
* From [PSPICE NETLIST] section of D:\Cadence\SPB_Data\\cdssetup\OrCAD_PSpice/16.6.0/PSpice.ini file:
.lib "nom.lib" 

*Analysis directives: 
.OPTIONS ADVCONV
.PROBE64 V(alias(*)) I(alias(*)) W(alias(*)) D(alias(*)) NOISE(alias(*)) 
.INC "..\SCHEMATIC1.net" 



**** INCLUDING SCHEMATIC1.net ****
* source LAB3_2
V_V1         0 N00202 DC 12  
I_I1         0 N00211 DC 0.002  
I_I2         0 N00211 DC 0.001  
V_V2         N00211 N00237 DC 8  
R_R1         0 N00237  4k TC=0,0 
R_R2         N00202 N00211  4k TC=0,0 

**** RESUMING Lab2_3.cir ****
.END

**** 09/29/25 11:16:56 ***** PSpice 16.6.0 (October 2012) ***** ID# 0 ********

 ** Profile: "SCHEMATIC1-Lab2_3"  [ D:\PSPICE\Lab3_2-PSpiceFiles\SCHEMATIC1\Lab2_3.sim ] 


 ****     SMALL SIGNAL BIAS SOLUTION       TEMPERATURE =   27.000 DEG C


******************************************************************************



 NODE   VOLTAGE     NODE   VOLTAGE     NODE   VOLTAGE     NODE   VOLTAGE


(N00202)  -12.0000 (N00211)    4.0000 (N00237)   -4.0000 




    VOLTAGE SOURCE CURRENTS
    NAME         CURRENT

    V_V1        -4.000E-03
    V_V2        -1.000E-03

    TOTAL POWER DISSIPATION   5.60E-02  WATTS



          JOB CONCLUDED

**** 09/29/25 11:16:56 ***** PSpice 16.6.0 (October 2012) ***** ID# 0 ********

 ** Profile: "SCHEMATIC1-Lab2_3"  [ D:\PSPICE\Lab3_2-PSpiceFiles\SCHEMATIC1\Lab2_3.sim ] 


 ****     JOB STATISTICS SUMMARY


******************************************************************************



  Total job time (using Solver 1)   =        0.00
